T79BC 000:016.087   SEGGER J-Link V7.22b Log File
T79BC 000:016.429   DLL Compiled: Jun 17 2021 17:22:49
T79BC 000:016.455   Logging started @ 2024-05-11 16:51
T79BC 000:016.480 - 16.493ms
T79BC 000:016.513 JLINK_SetWarnOutHandler(...)
T79BC 000:016.540 - 0.039ms
T79BC 000:016.567 JLINK_OpenEx(...)
T79BC 000:020.267   TELNET listener socket opened on port 19021
T79BC 000:020.393   WEBSRV Starting webserver
T79BC 000:020.519   WEBSRV Webserver running on local port 19080
T79BC 000:020.562 - 4.008ms returns "O.K."
T79BC 000:020.790 JLINK_GetEmuCaps()
T79BC 000:020.816 - 0.039ms returns 0x98E61B83
T79BC 000:020.847 JLINK_TIF_GetAvailable(...)
T79BC 000:020.873 - 0.038ms
T79BC 000:020.900 JLINK_SetErrorOutHandler(...)
T79BC 000:020.925 - 0.037ms
T79BC 000:021.149 JLINK_ExecCommand("ProjectFile = "F:\桌面\项目\大创\垃圾桶\智能垃圾分类\项目源码\stm32_FreeRTOS\MDK-ARM\JLinkSettings.ini"", ...). 
T79BC 000:047.155   Device "STM32F405RG" selected.
T79BC 000:047.637 - 26.505ms returns 0x00
T79BC 000:053.516 JLINK_ExecCommand("Device = STM32F427IIHx", ...). 
T79BC 000:057.543   Device "STM32F405RG" selected.
T79BC 000:058.048 - 4.497ms returns 0x00
T79BC 000:058.089 JLINK_GetHardwareVersion()
T79BC 000:058.460 - 0.388ms returns 20000
T79BC 000:058.494 JLINK_GetDLLVersion()
T79BC 000:058.520 - 0.038ms returns 72202
T79BC 000:058.547 JLINK_GetOEMString(...)
T79BC 000:058.574 JLINK_GetFirmwareString(...)
T79BC 000:058.603 - 0.041ms
T79BC 000:069.571 JLINK_GetDLLVersion()
T79BC 000:069.622 - 0.064ms returns 72202
T79BC 000:069.658 JLINK_GetCompileDateTime()
T79BC 000:069.684 - 0.037ms
T79BC 000:073.136 JLINK_GetFirmwareString(...)
T79BC 000:073.170 - 0.047ms
T79BC 000:078.650 JLINK_GetHardwareVersion()
T79BC 000:078.702 - 0.071ms returns 20000
T79BC 000:082.435 JLINK_GetSN()
T79BC 000:082.485 - 0.064ms returns 1042814002
T79BC 000:085.553 JLINK_GetOEMString(...)
T79BC 000:088.404 JLINK_TIF_Select(JLINKARM_TIF_SWD)
T79BC 000:089.570 - 1.191ms returns 0x00
T79BC 000:089.616 JLINK_HasError()
T79BC 000:089.667 JLINK_SetSpeed(5000)
T79BC 000:090.068 - 0.416ms
T79BC 000:090.099 JLINK_GetId()
T79BC 000:095.168   InitTarget() start
T79BC 000:095.220    J-Link Script File: Executing InitTarget()
T79BC 000:111.103   InitTarget() end
T79BC 000:116.654   Found SW-DP with ID 0x2BA01477
T79BC 000:118.320   Old FW that does not support reading DPIDR via DAP jobs
T79BC 000:123.470   DPv0 detected
T79BC 000:127.424   Scanning AP map to find all available APs
T79BC 000:131.028   AP[1]: Stopped AP scan as end of AP map has been reached
T79BC 000:134.319   AP[0]: AHB-AP (IDR: 0x24770011)
T79BC 000:137.283   Iterating through AP map to find AHB-AP to use
T79BC 000:141.508   AP[0]: Core found
T79BC 000:144.390   AP[0]: AHB-AP ROM base: 0xE00FF000
T79BC 000:147.842   CPUID register: 0x410FC241. Implementer code: 0x41 (ARM)
T79BC 000:151.244   Found Cortex-M4 r0p1, Little endian.
T79BC 000:253.262   -- Max. mem block: 0xFFFFFEFA
T79BC 000:253.548    -- CPU_ReadMem(4 bytes @ 0xE000EDF0)
T79BC 000:255.450    -- CPU_ReadMem(4 bytes @ 0xE0002000)
T79BC 000:263.365   FPUnit: 6 code (BP) slots and 2 literal slots
T79BC 000:263.426    -- CPU_ReadMem(4 bytes @ 0xE000EDFC)
T79BC 000:265.332    -- CPU_ReadMem(4 bytes @ 0xE0001000)
T79BC 000:267.326    -- CPU_WriteMem(4 bytes @ 0xE0001000)
T79BC 000:269.952    -- CPU_ReadMem(4 bytes @ 0xE000ED88)
T79BC 000:271.826    -- CPU_WriteMem(4 bytes @ 0xE000ED88)
T79BC 000:274.446    -- CPU_ReadMem(4 bytes @ 0xE000ED88)
T79BC 000:276.324    -- CPU_WriteMem(4 bytes @ 0xE000ED88)
T79BC 000:282.961   CoreSight components:
T79BC 000:286.437   ROMTbl[0] @ E00FF000
T79BC 000:286.498    -- CPU_ReadMem(64 bytes @ 0xE00FF000)
T79BC 000:289.202    -- CPU_ReadMem(32 bytes @ 0xE000EFE0)
T79BC 000:296.447   ROMTbl[0][0]: E000E000, CID: B105E00D, PID: 000BB00C SCS-M7
T79BC 000:296.506    -- CPU_ReadMem(32 bytes @ 0xE0001FE0)
T79BC 000:302.323   ROMTbl[0][1]: E0001000, CID: B105E00D, PID: 003BB002 DWT
T79BC 000:302.391    -- CPU_ReadMem(32 bytes @ 0xE0002FE0)
T79BC 000:308.990   ROMTbl[0][2]: E0002000, CID: B105E00D, PID: 002BB003 FPB
T79BC 000:309.116    -- CPU_ReadMem(32 bytes @ 0xE0000FE0)
T79BC 000:314.327   ROMTbl[0][3]: E0000000, CID: B105E00D, PID: 003BB001 ITM
T79BC 000:314.375    -- CPU_ReadMem(32 bytes @ 0xE0040FE0)
T79BC 000:319.994   ROMTbl[0][4]: E0040000, CID: B105900D, PID: 000BB9A1 TPIU
T79BC 000:320.059    -- CPU_ReadMem(32 bytes @ 0xE0041FE0)
T79BC 000:325.492   ROMTbl[0][5]: E0041000, CID: B105900D, PID: 000BB925 ETM
T79BC 000:326.321 - 236.244ms returns 0x2BA01477
T79BC 000:326.369 JLINK_GetDLLVersion()
T79BC 000:326.400 - 0.045ms returns 72202
T79BC 000:326.433 JLINK_CORE_GetFound()
T79BC 000:326.463 - 0.044ms returns 0xE0000FF
T79BC 000:326.497 JLINK_GetDebugInfo(0x100 = JLINKARM_ROM_TABLE_ADDR_INDEX)
T79BC 000:326.528   Value=0xE00FF000
T79BC 000:326.571 - 0.089ms returns 0
T79BC 000:329.616 JLINK_GetDebugInfo(0x100 = JLINKARM_ROM_TABLE_ADDR_INDEX)
T79BC 000:329.651   Value=0xE00FF000
T79BC 000:329.688 - 0.084ms returns 0
T79BC 000:329.715 JLINK_GetDebugInfo(0x101 = JLINKARM_DEBUG_INFO_ETM_ADDR_INDEX)
T79BC 000:329.740   Value=0xE0041000
T79BC 000:329.776 - 0.073ms returns 0
T79BC 000:329.810 JLINK_ReadMemEx(0xE0041FD0, 0x20 Bytes, Flags = 0x02000004)
T79BC 000:330.024    -- CPU_ReadMem(32 bytes @ 0xE0041FD0)
T79BC 000:332.102   Data:  04 00 00 00 00 00 00 00 00 00 00 00 00 00 00 00 ...
T79BC 000:332.177 - 2.385ms returns 32 (0x20)
T79BC 000:332.221 JLINK_GetDebugInfo(0x102 = JLINKARM_DEBUG_INFO_MTB_ADDR_INDEX)
T79BC 000:332.261   Value=0x00000000
T79BC 000:332.317 - 0.113ms returns 0
T79BC 000:332.357 JLINK_GetDebugInfo(0x103 = JLINKARM_DEBUG_INFO_TPIU_ADDR_INDEX)
T79BC 000:332.395   Value=0xE0040000
T79BC 000:332.450 - 0.112ms returns 0
T79BC 000:332.490 JLINK_GetDebugInfo(0x104 = JLINKARM_DEBUG_INFO_ITM_ADDR_INDEX)
T79BC 000:332.528   Value=0xE0000000
T79BC 000:332.569 - 0.091ms returns 0
T79BC 000:332.595 JLINK_GetDebugInfo(0x105 = JLINKARM_DEBUG_INFO_DWT_ADDR_INDEX)
T79BC 000:332.622   Value=0xE0001000
T79BC 000:332.664 - 0.081ms returns 0
T79BC 000:332.691 JLINK_GetDebugInfo(0x106 = JLINKARM_DEBUG_INFO_FPB_ADDR_INDEX)
T79BC 000:332.716   Value=0xE0002000
T79BC 000:332.753 - 0.074ms returns 0
T79BC 000:332.780 JLINK_GetDebugInfo(0x107 = JLINKARM_DEBUG_INFO_NVIC_ADDR_INDEX)
T79BC 000:332.805   Value=0xE000E000
T79BC 000:332.842 - 0.074ms returns 0
T79BC 000:332.869 JLINK_GetDebugInfo(0x10C = JLINKARM_DEBUG_INFO_DBG_ADDR_INDEX)
T79BC 000:332.894   Value=0xE000EDF0
T79BC 000:332.930 - 0.074ms returns 0
T79BC 000:332.957 JLINK_GetDebugInfo(0x01 = Unknown)
T79BC 000:332.982   Value=0x00000001
T79BC 000:333.019 - 0.074ms returns 0
T79BC 000:333.045 JLINK_ReadMemU32(0xE000ED00, 0x1 Items)
T79BC 000:333.077    -- CPU_ReadMem(4 bytes @ 0xE000ED00)
T79BC 000:334.947   Data:  41 C2 0F 41
T79BC 000:334.996   Debug reg: CPUID
T79BC 000:335.034 - 2.001ms returns 1 (0x1)
T79BC 000:335.063 JLINK_GetDebugInfo(0x10F = JLINKARM_DEBUG_INFO_HAS_CORTEX_M_SECURITY_EXT_INDEX)
T79BC 000:335.089   Value=0x00000000
T79BC 000:335.126 - 0.075ms returns 0
T79BC 000:335.152 JLINK_HasError()
T79BC 000:335.180 JLINK_SetResetType(JLINKARM_CM3_RESET_TYPE_NORMAL)
T79BC 000:335.205 - 0.037ms returns JLINKARM_CM3_RESET_TYPE_NORMAL
T79BC 000:335.231 JLINK_Reset()
T79BC 000:335.274   CPU is running
T79BC 000:335.314    -- CPU_WriteMem(4 bytes @ 0xE000EDF0)
T79BC 000:337.948   CPU is running
T79BC 000:337.997    -- CPU_WriteMem(4 bytes @ 0xE000EDFC)
T79BC 000:344.136   Reset: Halt core after reset via DEMCR.VC_CORERESET.
T79BC 000:347.639   Reset: Reset device via AIRCR.SYSRESETREQ.
T79BC 000:347.686   CPU is running
T79BC 000:347.723    -- CPU_WriteMem(4 bytes @ 0xE000ED0C)
T79BC 000:403.583    -- CPU_ReadMem(4 bytes @ 0xE000EDF0)
T79BC 000:405.571    -- CPU_ReadMem(4 bytes @ 0xE000EDF0)
T79BC 000:407.445   CPU is running
T79BC 000:407.497    -- CPU_WriteMem(4 bytes @ 0xE000EDF0)
T79BC 000:410.194   CPU is running
T79BC 000:410.238    -- CPU_WriteMem(4 bytes @ 0xE000EDFC)
T79BC 000:418.141    -- CPU_ReadMem(4 bytes @ 0xE000EDF0)
T79BC 000:430.087    -- CPU_WriteMem(4 bytes @ 0xE0002000)
T79BC 000:432.825    -- CPU_ReadMem(4 bytes @ 0xE000EDFC)
T79BC 000:434.696    -- CPU_ReadMem(4 bytes @ 0xE0001000)
T79BC 000:436.582 - 101.375ms
T79BC 000:436.641 JLINK_Halt()
T79BC 000:436.684 - 0.062ms returns 0x00
T79BC 000:436.727 JLINK_ReadMemU32(0xE000EDF0, 0x1 Items)
T79BC 000:436.775    -- CPU_ReadMem(4 bytes @ 0xE000EDF0)
T79BC 000:438.699   Data:  03 00 03 00
T79BC 000:438.770   Debug reg: DHCSR
T79BC 000:438.831 - 2.129ms returns 1 (0x1)
T79BC 000:438.889 JLINK_WriteU32_64(0xE000EDF0, 0xA05F0003)
T79BC 000:438.959   Debug reg: DHCSR
T79BC 000:439.288    -- CPU_WriteMem(4 bytes @ 0xE000EDF0)
T79BC 000:441.950 - 3.086ms returns 0 (0x00000000)
T79BC 000:442.001 JLINK_WriteU32_64(0xE000EDFC, 0x01000000)
T79BC 000:442.040   Debug reg: DEMCR
T79BC 000:442.104    -- CPU_WriteMem(4 bytes @ 0xE000EDFC)
T79BC 000:444.822 - 2.843ms returns 0 (0x00000000)
T79BC 000:461.360 JLINK_GetHWStatus(...)
T79BC 000:461.822 - 0.477ms returns 0
T79BC 000:471.321 JLINK_GetNumBPUnits(Type = 0xFFFFFF00)
T79BC 000:471.376 - 0.067ms returns 0x06
T79BC 000:471.404 JLINK_GetNumBPUnits(Type = 0xF0)
T79BC 000:471.430 - 0.038ms returns 0x2000
T79BC 000:471.457 JLINK_GetNumWPUnits()
T79BC 000:471.482 - 0.037ms returns 4
T79BC 000:480.729 JLINK_GetSpeed()
T79BC 000:480.773 - 0.056ms returns 5000
T79BC 000:487.660 JLINK_ReadMemU32(0xE000E004, 0x1 Items)
T79BC 000:487.731    -- CPU_ReadMem(4 bytes @ 0xE000E004)
T79BC 000:489.706   Data:  02 00 00 00
T79BC 000:489.779 - 2.137ms returns 1 (0x1)
T79BC 000:489.823 JLINK_ReadMemU32(0xE000E004, 0x1 Items)
T79BC 000:489.868    -- CPU_ReadMem(4 bytes @ 0xE000E004)
T79BC 000:491.823   Data:  02 00 00 00
T79BC 000:491.893 - 2.089ms returns 1 (0x1)
T79BC 000:491.937 JLINK_WriteMemEx(0xE0001000, 0x0000001C Bytes, Flags = 0x02000004)
T79BC 000:491.976   Data:  01 00 00 00 00 00 00 00 00 00 00 00 00 00 00 00 ...
T79BC 000:492.043    -- CPU_WriteMem(28 bytes @ 0xE0001000)
T79BC 000:494.821 - 2.907ms returns 0x1C
T79BC 000:494.871 JLINK_Halt()
T79BC 000:494.910 - 0.057ms returns 0x00
T79BC 000:494.950 JLINK_IsHalted()
T79BC 000:494.988 - 0.057ms returns TRUE
T79BC 000:505.831 JLINK_WriteMem(0x20000000, 0x19C Bytes, ...)
T79BC 000:505.877   Data:  00 BE 0A E0 0D 78 2D 06 68 40 08 24 40 00 00 D3 ...
T79BC 000:506.117    -- CPU_WriteMem(412 bytes @ 0x20000000)
T79BC 000:513.320 - 7.516ms returns 0x19C
T79BC 000:513.396 JLINK_HasError()
T79BC 000:513.434 JLINK_WriteReg(R0, 0x08000000)
T79BC 000:513.470 - 0.051ms returns 0
T79BC 000:513.505 JLINK_WriteReg(R1, 0x0ABA9500)
T79BC 000:513.538 - 0.048ms returns 0
T79BC 000:513.571 JLINK_WriteReg(R2, 0x00000001)
T79BC 000:513.602 - 0.046ms returns 0
T79BC 000:513.635 JLINK_WriteReg(R3, 0x00000000)
T79BC 000:513.666 - 0.046ms returns 0
T79BC 000:513.699 JLINK_WriteReg(R4, 0x00000000)
T79BC 000:513.730 - 0.046ms returns 0
T79BC 000:513.762 JLINK_WriteReg(R5, 0x00000000)
T79BC 000:513.793 - 0.046ms returns 0
T79BC 000:513.826 JLINK_WriteReg(R6, 0x00000000)
T79BC 000:513.852 - 0.039ms returns 0
T79BC 000:513.879 JLINK_WriteReg(R7, 0x00000000)
T79BC 000:513.904 - 0.037ms returns 0
T79BC 000:513.930 JLINK_WriteReg(R8, 0x00000000)
T79BC 000:513.967 - 0.050ms returns 0
T79BC 000:513.994 JLINK_WriteReg(R9, 0x20000198)
T79BC 000:514.019 - 0.037ms returns 0
T79BC 000:514.046 JLINK_WriteReg(R10, 0x00000000)
T79BC 000:514.071 - 0.037ms returns 0
T79BC 000:514.097 JLINK_WriteReg(R11, 0x00000000)
T79BC 000:514.122 - 0.038ms returns 0
T79BC 000:514.152 JLINK_WriteReg(R12, 0x00000000)
T79BC 000:514.185 - 0.051ms returns 0
T79BC 000:514.223 JLINK_WriteReg(R13 (SP), 0x20001000)
T79BC 000:514.257 - 0.047ms returns 0
T79BC 000:514.285 JLINK_WriteReg(R14, 0x20000001)
T79BC 000:514.310 - 0.038ms returns 0
T79BC 000:514.336 JLINK_WriteReg(R15 (PC), 0x2000005E)
T79BC 000:514.546 - 0.223ms returns 0
T79BC 000:514.575 JLINK_WriteReg(XPSR, 0x01000000)
T79BC 000:514.601 - 0.040ms returns 0
T79BC 000:514.630 JLINK_WriteReg(MSP, 0x20001000)
T79BC 000:514.655 - 0.040ms returns 0
T79BC 000:514.686 JLINK_WriteReg(PSP, 0x20001000)
T79BC 000:514.711 - 0.038ms returns 0
T79BC 000:514.738 JLINK_WriteReg(CFBP, 0x00000000)
T79BC 000:514.764 - 0.038ms returns 0
T79BC 000:514.790 JLINK_SetBPEx(Addr = 0x20000000, Type = 0xFFFFFFF2)
T79BC 000:514.822    -- CPU_ReadMem(2 bytes @ 0x20000000)
T79BC 000:517.107 - 2.349ms returns 0x00000001
T79BC 000:517.160 JLINK_Go()
T79BC 000:517.191    -- CPU_WriteMem(2 bytes @ 0x20000000)
T79BC 000:519.836    -- CPU_ReadMem(4 bytes @ 0xE0001000)
T79BC 000:521.830    -- CPU_WriteMem(4 bytes @ 0xE0002008)
T79BC 000:524.571    -- CPU_WriteMem(4 bytes @ 0xE000200C)
T79BC 000:527.196    -- CPU_WriteMem(4 bytes @ 0xE0002010)
T79BC 000:529.831    -- CPU_WriteMem(4 bytes @ 0xE0002014)
T79BC 000:532.575    -- CPU_WriteMem(4 bytes @ 0xE0002018)
T79BC 000:535.194    -- CPU_WriteMem(4 bytes @ 0xE000201C)
T79BC 000:537.827    -- CPU_WriteMem(4 bytes @ 0xE0001004)
T79BC 000:552.449 - 35.330ms
T79BC 000:552.515 JLINK_IsHalted()
T79BC 000:562.084    -- CPU_ReadMem(2 bytes @ 0x20000000)
T79BC 000:564.449 - 11.958ms returns TRUE
T79BC 000:564.501 JLINK_ReadReg(R15 (PC))
T79BC 000:564.543 - 0.062ms returns 0x20000000
T79BC 000:564.586 JLINK_ClrBPEx(BPHandle = 0x00000001)
T79BC 000:564.627 - 0.060ms returns 0x00
T79BC 000:564.670 JLINK_ReadReg(R0)
T79BC 000:564.709 - 0.058ms returns 0x00000000
T79BC 000:568.157 JLINK_HasError()
T79BC 000:568.222 JLINK_WriteReg(R0, 0x08000000)
T79BC 000:568.262 - 0.058ms returns 0
T79BC 000:568.300 JLINK_WriteReg(R1, 0x00004000)
T79BC 000:568.337 - 0.055ms returns 0
T79BC 000:568.374 JLINK_WriteReg(R2, 0x000000FF)
T79BC 000:568.409 - 0.052ms returns 0
T79BC 000:568.446 JLINK_WriteReg(R3, 0x00000000)
T79BC 000:568.480 - 0.051ms returns 0
T79BC 000:568.517 JLINK_WriteReg(R4, 0x00000000)
T79BC 000:568.552 - 0.052ms returns 0
T79BC 000:568.588 JLINK_WriteReg(R5, 0x00000000)
T79BC 000:568.623 - 0.051ms returns 0
T79BC 000:568.659 JLINK_WriteReg(R6, 0x00000000)
T79BC 000:568.694 - 0.052ms returns 0
T79BC 000:568.731 JLINK_WriteReg(R7, 0x00000000)
T79BC 000:568.765 - 0.052ms returns 0
T79BC 000:568.801 JLINK_WriteReg(R8, 0x00000000)
T79BC 000:568.836 - 0.049ms returns 0
T79BC 000:568.867 JLINK_WriteReg(R9, 0x20000198)
T79BC 000:568.895 - 0.042ms returns 0
T79BC 000:568.924 JLINK_WriteReg(R10, 0x00000000)
T79BC 000:568.952 - 0.042ms returns 0
T79BC 000:568.983 JLINK_WriteReg(R11, 0x00000000)
T79BC 000:569.011 - 0.042ms returns 0
T79BC 000:569.040 JLINK_WriteReg(R12, 0x00000000)
T79BC 000:569.069 - 0.042ms returns 0
T79BC 000:569.098 JLINK_WriteReg(R13 (SP), 0x20001000)
T79BC 000:569.127 - 0.043ms returns 0
T79BC 000:569.157 JLINK_WriteReg(R14, 0x20000001)
T79BC 000:569.185 - 0.042ms returns 0
T79BC 000:569.215 JLINK_WriteReg(R15 (PC), 0x20000020)
T79BC 000:569.243 - 0.042ms returns 0
T79BC 000:569.273 JLINK_WriteReg(XPSR, 0x01000000)
T79BC 000:569.301 - 0.043ms returns 0
T79BC 000:569.332 JLINK_WriteReg(MSP, 0x20001000)
T79BC 000:569.360 - 0.042ms returns 0
T79BC 000:569.389 JLINK_WriteReg(PSP, 0x20001000)
T79BC 000:569.417 - 0.042ms returns 0
T79BC 000:569.446 JLINK_WriteReg(CFBP, 0x00000000)
T79BC 000:569.475 - 0.042ms returns 0
T79BC 000:569.505 JLINK_SetBPEx(Addr = 0x20000000, Type = 0xFFFFFFF2)
T79BC 000:569.534 - 0.044ms returns 0x00000002
T79BC 000:569.564 JLINK_Go()
T79BC 000:569.603    -- CPU_ReadMem(4 bytes @ 0xE0001000)
T79BC 000:583.576 - 14.056ms
T79BC 000:583.646 JLINK_IsHalted()
T79BC 000:593.207    -- CPU_ReadMem(2 bytes @ 0x20000000)
T79BC 000:595.572 - 11.948ms returns TRUE
T79BC 000:595.623 JLINK_ReadReg(R15 (PC))
T79BC 000:595.663 - 0.058ms returns 0x20000000
T79BC 000:595.703 JLINK_ClrBPEx(BPHandle = 0x00000002)
T79BC 000:595.739 - 0.052ms returns 0x00
T79BC 000:595.777 JLINK_ReadReg(R0)
T79BC 000:595.812 - 0.052ms returns 0x00000001
T79BC 000:595.852 JLINK_HasError()
T79BC 000:595.890 JLINK_WriteReg(R0, 0x08000000)
T79BC 000:595.927 - 0.053ms returns 0
T79BC 000:595.965 JLINK_WriteReg(R1, 0x00004000)
T79BC 000:596.000 - 0.052ms returns 0
T79BC 000:596.042 JLINK_WriteReg(R2, 0x000000FF)
T79BC 000:596.081 - 0.055ms returns 0
T79BC 000:596.119 JLINK_WriteReg(R3, 0x00000000)
T79BC 000:596.154 - 0.052ms returns 0
T79BC 000:596.192 JLINK_WriteReg(R4, 0x00000000)
T79BC 000:596.226 - 0.052ms returns 0
T79BC 000:596.265 JLINK_WriteReg(R5, 0x00000000)
T79BC 000:596.300 - 0.058ms returns 0
T79BC 000:596.346 JLINK_WriteReg(R6, 0x00000000)
T79BC 000:596.381 - 0.053ms returns 0
T79BC 000:596.419 JLINK_WriteReg(R7, 0x00000000)
T79BC 000:596.454 - 0.052ms returns 0
T79BC 000:596.492 JLINK_WriteReg(R8, 0x00000000)
T79BC 000:596.527 - 0.052ms returns 0
T79BC 000:596.565 JLINK_WriteReg(R9, 0x20000198)
T79BC 000:596.600 - 0.052ms returns 0
T79BC 000:596.638 JLINK_WriteReg(R10, 0x00000000)
T79BC 000:596.673 - 0.052ms returns 0
T79BC 000:596.711 JLINK_WriteReg(R11, 0x00000000)
T79BC 000:596.746 - 0.052ms returns 0
T79BC 000:596.784 JLINK_WriteReg(R12, 0x00000000)
T79BC 000:596.819 - 0.052ms returns 0
T79BC 000:596.857 JLINK_WriteReg(R13 (SP), 0x20001000)
T79BC 000:596.892 - 0.052ms returns 0
T79BC 000:596.927 JLINK_WriteReg(R14, 0x20000001)
T79BC 000:596.955 - 0.042ms returns 0
T79BC 000:596.986 JLINK_WriteReg(R15 (PC), 0x200000D8)
T79BC 000:597.015 - 0.042ms returns 0
T79BC 000:597.045 JLINK_WriteReg(XPSR, 0x01000000)
T79BC 000:597.074 - 0.042ms returns 0
T79BC 000:597.105 JLINK_WriteReg(MSP, 0x20001000)
T79BC 000:597.133 - 0.042ms returns 0
T79BC 000:597.166 JLINK_WriteReg(PSP, 0x20001000)
T79BC 000:597.200 - 0.047ms returns 0
T79BC 000:597.231 JLINK_WriteReg(CFBP, 0x00000000)
T79BC 000:597.259 - 0.042ms returns 0
T79BC 000:597.291 JLINK_SetBPEx(Addr = 0x20000000, Type = 0xFFFFFFF2)
T79BC 000:597.320 - 0.044ms returns 0x00000003
T79BC 000:597.352 JLINK_Go()
T79BC 000:597.387    -- CPU_ReadMem(4 bytes @ 0xE0001000)
T79BC 000:611.322 - 14.011ms
T79BC 000:611.391 JLINK_IsHalted()
T79BC 000:614.072 - 2.713ms returns FALSE
T79BC 000:614.134 JLINK_HasError()
T79BC 000:633.470 JLINK_IsHalted()
T79BC 000:636.322 - 2.880ms returns FALSE
T79BC 000:636.370 JLINK_HasError()
T79BC 000:642.299 JLINK_IsHalted()
T79BC 000:644.947 - 2.673ms returns FALSE
T79BC 000:644.999 JLINK_HasError()
T79BC 000:648.299 JLINK_IsHalted()
T79BC 000:650.946 - 2.677ms returns FALSE
T79BC 000:650.996 JLINK_HasError()
T79BC 000:655.304 JLINK_IsHalted()
T79BC 000:657.946 - 2.662ms returns FALSE
T79BC 000:657.985 JLINK_HasError()
T79BC 000:661.183 JLINK_IsHalted()
T79BC 000:663.817 - 2.650ms returns FALSE
T79BC 000:663.850 JLINK_HasError()
T79BC 000:665.194 JLINK_IsHalted()
T79BC 000:667.821 - 2.654ms returns FALSE
T79BC 000:667.867 JLINK_HasError()
T79BC 000:671.356 JLINK_IsHalted()
T79BC 000:674.071 - 2.739ms returns FALSE
T79BC 000:674.123 JLINK_HasError()
T79BC 000:677.426 JLINK_IsHalted()
T79BC 000:680.071 - 2.671ms returns FALSE
T79BC 000:680.122 JLINK_HasError()
T79BC 000:682.183 JLINK_IsHalted()
T79BC 000:684.820 - 2.660ms returns FALSE
T79BC 000:684.862 JLINK_HasError()
T79BC 000:689.183 JLINK_IsHalted()
T79BC 000:691.821 - 2.665ms returns FALSE
T79BC 000:691.874 JLINK_HasError()
T79BC 000:695.188 JLINK_IsHalted()
T79BC 000:697.819 - 2.656ms returns FALSE
T79BC 000:697.864 JLINK_HasError()
T79BC 000:701.008 JLINK_IsHalted()
T79BC 000:703.694 - 2.706ms returns FALSE
T79BC 000:703.737 JLINK_HasError()
T79BC 000:706.813 JLINK_IsHalted()
T79BC 000:709.446 - 2.658ms returns FALSE
T79BC 000:709.496 JLINK_HasError()
T79BC 000:712.693 JLINK_IsHalted()
T79BC 000:715.323 - 2.658ms returns FALSE
T79BC 000:715.373 JLINK_HasError()
T79BC 000:719.421 JLINK_IsHalted()
T79BC 000:722.072 - 2.682ms returns FALSE
T79BC 000:722.130 JLINK_HasError()
T79BC 000:725.427 JLINK_IsHalted()
T79BC 000:728.077 - 2.682ms returns FALSE
T79BC 000:728.136 JLINK_HasError()
T79BC 000:735.598 JLINK_IsHalted()
T79BC 000:738.320 - 2.742ms returns FALSE
T79BC 000:738.361 JLINK_HasError()
T79BC 000:741.298 JLINK_IsHalted()
T79BC 000:743.954 - 2.684ms returns FALSE
T79BC 000:744.008 JLINK_HasError()
T79BC 000:746.295 JLINK_IsHalted()
T79BC 000:748.953 - 2.694ms returns FALSE
T79BC 000:749.016 JLINK_HasError()
T79BC 000:752.299 JLINK_IsHalted()
T79BC 000:754.944 - 2.663ms returns FALSE
T79BC 000:754.979 JLINK_HasError()
T79BC 000:758.178 JLINK_IsHalted()
T79BC 000:760.821 - 2.674ms returns FALSE
T79BC 000:760.878 JLINK_HasError()
T79BC 000:764.244 JLINK_IsHalted()
T79BC 000:766.947 - 2.738ms returns FALSE
T79BC 000:767.006 JLINK_HasError()
T79BC 000:770.199 JLINK_IsHalted()
T79BC 000:772.821 - 2.653ms returns FALSE
T79BC 000:772.878 JLINK_HasError()
T79BC 000:776.183 JLINK_IsHalted()
T79BC 000:778.825 - 2.675ms returns FALSE
T79BC 000:778.885 JLINK_HasError()
T79BC 000:783.065 JLINK_IsHalted()
T79BC 000:785.694 - 2.653ms returns FALSE
T79BC 000:785.737 JLINK_HasError()
T79BC 000:787.322 JLINK_IsHalted()
T79BC 000:789.947 - 2.649ms returns FALSE
T79BC 000:789.998 JLINK_HasError()
T79BC 000:793.288 JLINK_IsHalted()
T79BC 000:795.947 - 2.682ms returns FALSE
T79BC 000:795.995 JLINK_HasError()
T79BC 000:799.563 JLINK_IsHalted()
T79BC 000:802.193 - 2.651ms returns FALSE
T79BC 000:802.232 JLINK_HasError()
T79BC 000:804.759 JLINK_IsHalted()
T79BC 000:807.442 - 2.703ms returns FALSE
T79BC 000:807.480 JLINK_HasError()
T79BC 000:808.759 JLINK_IsHalted()
T79BC 000:811.445 - 2.712ms returns FALSE
T79BC 000:811.496 JLINK_HasError()
T79BC 000:814.769 JLINK_IsHalted()
T79BC 000:817.446 - 2.712ms returns FALSE
T79BC 000:817.503 JLINK_HasError()
T79BC 000:818.765 JLINK_IsHalted()
T79BC 000:821.446 - 2.705ms returns FALSE
T79BC 000:821.497 JLINK_HasError()
T79BC 000:829.769 JLINK_IsHalted()
T79BC 000:832.451 - 2.716ms returns FALSE
T79BC 000:832.507 JLINK_HasError()
T79BC 000:833.768 JLINK_IsHalted()
T79BC 000:836.444 - 2.696ms returns FALSE
T79BC 000:836.484 JLINK_HasError()
T79BC 000:839.575 JLINK_IsHalted()
T79BC 000:842.195 - 2.646ms returns FALSE
T79BC 000:842.246 JLINK_HasError()
T79BC 000:844.773 JLINK_IsHalted()
T79BC 000:847.443 - 2.693ms returns FALSE
T79BC 000:847.487 JLINK_HasError()
T79BC 000:848.777 JLINK_IsHalted()
T79BC 000:851.443 - 2.689ms returns FALSE
T79BC 000:851.489 JLINK_HasError()
T79BC 000:854.779 JLINK_IsHalted()
T79BC 000:857.439 - 2.684ms returns FALSE
T79BC 000:857.485 JLINK_HasError()
T79BC 000:861.585 JLINK_IsHalted()
T79BC 000:864.322 - 2.762ms returns FALSE
T79BC 000:864.372 JLINK_HasError()
T79BC 000:866.321 JLINK_IsHalted()
T79BC 000:868.951 - 2.656ms returns FALSE
T79BC 000:869.002 JLINK_HasError()
T79BC 000:875.006 JLINK_IsHalted()
T79BC 000:877.694 - 2.713ms returns FALSE
T79BC 000:877.740 JLINK_HasError()
T79BC 000:882.299 JLINK_IsHalted()
T79BC 000:884.945 - 2.671ms returns FALSE
T79BC 000:884.992 JLINK_HasError()
T79BC 000:888.323 JLINK_IsHalted()
T79BC 000:890.944 - 2.641ms returns FALSE
T79BC 000:890.982 JLINK_HasError()
T79BC 000:893.325 JLINK_IsHalted()
T79BC 000:895.947 - 2.645ms returns FALSE
T79BC 000:895.995 JLINK_HasError()
T79BC 000:897.177 JLINK_IsHalted()
T79BC 000:899.820 - 2.673ms returns FALSE
T79BC 000:899.870 JLINK_HasError()
T79BC 000:902.817 JLINK_IsHalted()
T79BC 000:905.449 - 2.658ms returns FALSE
T79BC 000:905.500 JLINK_HasError()
T79BC 000:906.819 JLINK_IsHalted()
T79BC 000:909.446 - 2.657ms returns FALSE
T79BC 000:909.504 JLINK_HasError()
T79BC 000:912.903 JLINK_IsHalted()
T79BC 000:915.574 - 2.703ms returns FALSE
T79BC 000:915.630 JLINK_HasError()
T79BC 000:922.656 JLINK_IsHalted()
T79BC 000:925.321 - 2.698ms returns FALSE
T79BC 000:925.380 JLINK_HasError()
T79BC 000:928.497 JLINK_IsHalted()
T79BC 000:931.192 - 2.714ms returns FALSE
T79BC 000:931.231 JLINK_HasError()
T79BC 000:937.322 JLINK_IsHalted()
T79BC 000:939.948 - 2.652ms returns FALSE
T79BC 000:940.003 JLINK_HasError()
T79BC 000:943.022 JLINK_IsHalted()
T79BC 000:945.700 - 2.708ms returns FALSE
T79BC 000:945.757 JLINK_HasError()
T79BC 000:948.514 JLINK_IsHalted()
T79BC 000:951.195 - 2.711ms returns FALSE
T79BC 000:951.244 JLINK_HasError()
T79BC 000:953.154 JLINK_IsHalted()
T79BC 000:955.821 - 2.698ms returns FALSE
T79BC 000:955.879 JLINK_HasError()
T79BC 000:959.153 JLINK_IsHalted()
T79BC 000:961.822 - 2.696ms returns FALSE
T79BC 000:961.874 JLINK_HasError()
T79BC 000:970.889 JLINK_IsHalted()
T79BC 000:973.571 - 2.706ms returns FALSE
T79BC 000:973.621 JLINK_HasError()
T79BC 000:976.501 JLINK_IsHalted()
T79BC 000:979.192 - 2.711ms returns FALSE
T79BC 000:979.230 JLINK_HasError()
T79BC 000:983.508 JLINK_IsHalted()
T79BC 000:986.196 - 2.715ms returns FALSE
T79BC 000:986.249 JLINK_HasError()
T79BC 000:989.503 JLINK_IsHalted()
T79BC 000:992.195 - 2.716ms returns FALSE
T79BC 000:992.243 JLINK_HasError()
T79BC 000:993.505 JLINK_IsHalted()
T79BC 000:996.692 - 3.210ms returns FALSE
T79BC 000:996.737 JLINK_HasError()
T79BC 001:000.108 JLINK_IsHalted()
T79BC 001:002.819 - 2.732ms returns FALSE
T79BC 001:002.861 JLINK_HasError()
T79BC 001:005.508 JLINK_IsHalted()
T79BC 001:008.195 - 2.711ms returns FALSE
T79BC 001:008.244 JLINK_HasError()
T79BC 001:009.508 JLINK_IsHalted()
T79BC 001:012.193 - 2.709ms returns FALSE
T79BC 001:012.237 JLINK_HasError()
T79BC 001:017.514 JLINK_IsHalted()
T79BC 001:020.195 - 2.706ms returns FALSE
T79BC 001:020.245 JLINK_HasError()
T79BC 001:023.512 JLINK_IsHalted()
T79BC 001:026.192 - 2.702ms returns FALSE
T79BC 001:026.234 JLINK_HasError()
T79BC 001:029.513 JLINK_IsHalted()
T79BC 001:032.201 - 2.717ms returns FALSE
T79BC 001:032.251 JLINK_HasError()
T79BC 001:033.514 JLINK_IsHalted()
T79BC 001:043.082    -- CPU_ReadMem(2 bytes @ 0x20000000)
T79BC 001:045.448 - 11.958ms returns TRUE
T79BC 001:045.497 JLINK_ReadReg(R15 (PC))
T79BC 001:045.540 - 0.061ms returns 0x20000000
T79BC 001:045.581 JLINK_ClrBPEx(BPHandle = 0x00000003)
T79BC 001:045.620 - 0.058ms returns 0x00
T79BC 001:045.661 JLINK_ReadReg(R0)
T79BC 001:045.700 - 0.058ms returns 0x00000000
T79BC 001:046.582 JLINK_HasError()
T79BC 001:046.635 JLINK_WriteReg(R0, 0x08004000)
T79BC 001:046.678 - 0.062ms returns 0
T79BC 001:046.719 JLINK_WriteReg(R1, 0x00004000)
T79BC 001:046.757 - 0.057ms returns 0
T79BC 001:046.797 JLINK_WriteReg(R2, 0x000000FF)
T79BC 001:046.832 - 0.049ms returns 0
T79BC 001:046.862 JLINK_WriteReg(R3, 0x00000000)
T79BC 001:046.890 - 0.042ms returns 0
T79BC 001:046.920 JLINK_WriteReg(R4, 0x00000000)
T79BC 001:046.948 - 0.042ms returns 0
T79BC 001:046.978 JLINK_WriteReg(R5, 0x00000000)
T79BC 001:047.006 - 0.042ms returns 0
T79BC 001:047.036 JLINK_WriteReg(R6, 0x00000000)
T79BC 001:047.065 - 0.043ms returns 0
T79BC 001:047.095 JLINK_WriteReg(R7, 0x00000000)
T79BC 001:047.124 - 0.042ms returns 0
T79BC 001:047.153 JLINK_WriteReg(R8, 0x00000000)
T79BC 001:047.182 - 0.042ms returns 0
T79BC 001:047.211 JLINK_WriteReg(R9, 0x20000198)
T79BC 001:047.240 - 0.042ms returns 0
T79BC 001:047.269 JLINK_WriteReg(R10, 0x00000000)
T79BC 001:047.298 - 0.042ms returns 0
T79BC 001:047.328 JLINK_WriteReg(R11, 0x00000000)
T79BC 001:047.356 - 0.042ms returns 0
T79BC 001:047.386 JLINK_WriteReg(R12, 0x00000000)
T79BC 001:047.414 - 0.042ms returns 0
T79BC 001:047.444 JLINK_WriteReg(R13 (SP), 0x20001000)
T79BC 001:047.473 - 0.043ms returns 0
T79BC 001:047.503 JLINK_WriteReg(R14, 0x20000001)
T79BC 001:047.531 - 0.042ms returns 0
T79BC 001:047.561 JLINK_WriteReg(R15 (PC), 0x20000020)
T79BC 001:047.589 - 0.042ms returns 0
T79BC 001:047.619 JLINK_WriteReg(XPSR, 0x01000000)
T79BC 001:047.648 - 0.043ms returns 0
T79BC 001:047.677 JLINK_WriteReg(MSP, 0x20001000)
T79BC 001:047.706 - 0.042ms returns 0
T79BC 001:047.735 JLINK_WriteReg(PSP, 0x20001000)
T79BC 001:047.764 - 0.042ms returns 0
T79BC 001:047.794 JLINK_WriteReg(CFBP, 0x00000000)
T79BC 001:047.822 - 0.042ms returns 0
T79BC 001:047.852 JLINK_SetBPEx(Addr = 0x20000000, Type = 0xFFFFFFF2)
T79BC 001:047.882 - 0.043ms returns 0x00000004
T79BC 001:047.912 JLINK_Go()
T79BC 001:047.947    -- CPU_ReadMem(4 bytes @ 0xE0001000)
T79BC 001:061.695 - 13.826ms
T79BC 001:061.766 JLINK_IsHalted()
T79BC 001:064.446 - 2.713ms returns FALSE
T79BC 001:064.507 JLINK_HasError()
T79BC 001:071.074 JLINK_IsHalted()
T79BC 001:073.822 - 2.777ms returns FALSE
T79BC 001:073.875 JLINK_HasError()
T79BC 001:078.073 JLINK_IsHalted()
T79BC 001:087.582    -- CPU_ReadMem(2 bytes @ 0x20000000)
T79BC 001:089.950 - 11.902ms returns TRUE
T79BC 001:090.003 JLINK_ReadReg(R15 (PC))
T79BC 001:090.046 - 0.062ms returns 0x20000000
T79BC 001:090.088 JLINK_ClrBPEx(BPHandle = 0x00000004)
T79BC 001:090.127 - 0.058ms returns 0x00
T79BC 001:090.167 JLINK_ReadReg(R0)
T79BC 001:090.206 - 0.057ms returns 0x00000000
T79BC 001:090.811 JLINK_HasError()
T79BC 001:090.863 JLINK_WriteReg(R0, 0x00000001)
T79BC 001:090.905 - 0.059ms returns 0
T79BC 001:090.937 JLINK_WriteReg(R1, 0x00004000)
T79BC 001:090.963 - 0.038ms returns 0
T79BC 001:090.990 JLINK_WriteReg(R2, 0x000000FF)
T79BC 001:091.015 - 0.038ms returns 0
T79BC 001:091.042 JLINK_WriteReg(R3, 0x00000000)
T79BC 001:091.068 - 0.039ms returns 0
T79BC 001:091.096 JLINK_WriteReg(R4, 0x00000000)
T79BC 001:091.121 - 0.038ms returns 0
T79BC 001:091.149 JLINK_WriteReg(R5, 0x00000000)
T79BC 001:091.174 - 0.038ms returns 0
T79BC 001:091.201 JLINK_WriteReg(R6, 0x00000000)
T79BC 001:091.226 - 0.038ms returns 0
T79BC 001:091.253 JLINK_WriteReg(R7, 0x00000000)
T79BC 001:091.278 - 0.038ms returns 0
T79BC 001:091.305 JLINK_WriteReg(R8, 0x00000000)
T79BC 001:091.331 - 0.038ms returns 0
T79BC 001:091.358 JLINK_WriteReg(R9, 0x20000198)
T79BC 001:091.383 - 0.038ms returns 0
T79BC 001:091.410 JLINK_WriteReg(R10, 0x00000000)
T79BC 001:091.435 - 0.038ms returns 0
T79BC 001:091.462 JLINK_WriteReg(R11, 0x00000000)
T79BC 001:091.487 - 0.038ms returns 0
T79BC 001:091.514 JLINK_WriteReg(R12, 0x00000000)
T79BC 001:091.540 - 0.038ms returns 0
T79BC 001:091.567 JLINK_WriteReg(R13 (SP), 0x20001000)
T79BC 001:091.593 - 0.038ms returns 0
T79BC 001:091.619 JLINK_WriteReg(R14, 0x20000001)
T79BC 001:091.645 - 0.038ms returns 0
T79BC 001:091.671 JLINK_WriteReg(R15 (PC), 0x20000090)
T79BC 001:091.697 - 0.038ms returns 0
T79BC 001:091.724 JLINK_WriteReg(XPSR, 0x01000000)
T79BC 001:091.749 - 0.038ms returns 0
T79BC 001:091.776 JLINK_WriteReg(MSP, 0x20001000)
T79BC 001:091.801 - 0.038ms returns 0
T79BC 001:091.828 JLINK_WriteReg(PSP, 0x20001000)
T79BC 001:091.853 - 0.038ms returns 0
T79BC 001:091.880 JLINK_WriteReg(CFBP, 0x00000000)
T79BC 001:091.906 - 0.038ms returns 0
T79BC 001:091.933 JLINK_SetBPEx(Addr = 0x20000000, Type = 0xFFFFFFF2)
T79BC 001:091.960 - 0.039ms returns 0x00000005
T79BC 001:091.988 JLINK_Go()
T79BC 001:092.020    -- CPU_ReadMem(4 bytes @ 0xE0001000)
T79BC 001:105.821 - 13.877ms
T79BC 001:105.894 JLINK_IsHalted()
T79BC 001:115.471    -- CPU_ReadMem(2 bytes @ 0x20000000)
T79BC 001:117.822 - 11.954ms returns TRUE
T79BC 001:117.873 JLINK_ReadReg(R15 (PC))
T79BC 001:117.913 - 0.058ms returns 0x20000000
T79BC 001:117.953 JLINK_ClrBPEx(BPHandle = 0x00000005)
T79BC 001:117.989 - 0.053ms returns 0x00
T79BC 001:118.027 JLINK_ReadReg(R0)
T79BC 001:118.062 - 0.052ms returns 0x00000000
T79BC 001:177.900 JLINK_WriteMem(0x20000000, 0x19C Bytes, ...)
T79BC 001:177.942   Data:  00 BE 0A E0 0D 78 2D 06 68 40 08 24 40 00 00 D3 ...
T79BC 001:177.997    -- CPU_WriteMem(412 bytes @ 0x20000000)
T79BC 001:185.199 - 7.340ms returns 0x19C
T79BC 001:185.308 JLINK_HasError()
T79BC 001:185.353 JLINK_WriteReg(R0, 0x08000000)
T79BC 001:185.393 - 0.057ms returns 0
T79BC 001:185.430 JLINK_WriteReg(R1, 0x0ABA9500)
T79BC 001:185.465 - 0.053ms returns 0
T79BC 001:185.502 JLINK_WriteReg(R2, 0x00000002)
T79BC 001:185.537 - 0.052ms returns 0
T79BC 001:185.574 JLINK_WriteReg(R3, 0x00000000)
T79BC 001:185.609 - 0.052ms returns 0
T79BC 001:185.645 JLINK_WriteReg(R4, 0x00000000)
T79BC 001:185.680 - 0.052ms returns 0
T79BC 001:185.717 JLINK_WriteReg(R5, 0x00000000)
T79BC 001:185.752 - 0.052ms returns 0
T79BC 001:185.788 JLINK_WriteReg(R6, 0x00000000)
T79BC 001:185.823 - 0.052ms returns 0
T79BC 001:185.859 JLINK_WriteReg(R7, 0x00000000)
T79BC 001:185.894 - 0.052ms returns 0
T79BC 001:185.931 JLINK_WriteReg(R8, 0x00000000)
T79BC 001:185.966 - 0.052ms returns 0
T79BC 001:186.002 JLINK_WriteReg(R9, 0x20000198)
T79BC 001:186.037 - 0.049ms returns 0
T79BC 001:186.067 JLINK_WriteReg(R10, 0x00000000)
T79BC 001:186.187 - 0.138ms returns 0
T79BC 001:186.222 JLINK_WriteReg(R11, 0x00000000)
T79BC 001:186.251 - 0.043ms returns 0
T79BC 001:186.281 JLINK_WriteReg(R12, 0x00000000)
T79BC 001:186.309 - 0.043ms returns 0
T79BC 001:186.340 JLINK_WriteReg(R13 (SP), 0x20001000)
T79BC 001:186.370 - 0.044ms returns 0
T79BC 001:186.400 JLINK_WriteReg(R14, 0x20000001)
T79BC 001:186.428 - 0.042ms returns 0
T79BC 001:186.458 JLINK_WriteReg(R15 (PC), 0x2000005E)
T79BC 001:186.487 - 0.042ms returns 0
T79BC 001:186.516 JLINK_WriteReg(XPSR, 0x01000000)
T79BC 001:186.545 - 0.042ms returns 0
T79BC 001:186.574 JLINK_WriteReg(MSP, 0x20001000)
T79BC 001:186.602 - 0.042ms returns 0
T79BC 001:186.632 JLINK_WriteReg(PSP, 0x20001000)
T79BC 001:186.660 - 0.042ms returns 0
T79BC 001:186.690 JLINK_WriteReg(CFBP, 0x00000000)
T79BC 001:186.718 - 0.043ms returns 0
T79BC 001:186.749 JLINK_SetBPEx(Addr = 0x20000000, Type = 0xFFFFFFF2)
T79BC 001:186.783    -- CPU_ReadMem(2 bytes @ 0x20000000)
T79BC 001:189.073 - 2.350ms returns 0x00000006
T79BC 001:189.119 JLINK_Go()
T79BC 001:189.153    -- CPU_WriteMem(2 bytes @ 0x20000000)
T79BC 001:191.825    -- CPU_ReadMem(4 bytes @ 0xE0001000)
T79BC 001:205.714 - 16.626ms
T79BC 001:205.770 JLINK_IsHalted()
T79BC 001:215.341    -- CPU_ReadMem(2 bytes @ 0x20000000)
T79BC 001:217.695 - 11.949ms returns TRUE
T79BC 001:217.742 JLINK_ReadReg(R15 (PC))
T79BC 001:217.773 - 0.044ms returns 0x20000000
T79BC 001:217.804 JLINK_ClrBPEx(BPHandle = 0x00000006)
T79BC 001:217.831 - 0.040ms returns 0x00
T79BC 001:217.860 JLINK_ReadReg(R0)
T79BC 001:217.886 - 0.038ms returns 0x00000000
T79BC 001:221.183 JLINK_WriteMem(0x2000019C, 0x264 Bytes, ...)
T79BC 001:221.226   Data:  88 4B 00 20 81 02 00 08 F3 2F 00 08 11 29 00 08 ...
T79BC 001:221.274    -- CPU_WriteMem(612 bytes @ 0x2000019C)
T79BC 001:230.442 - 9.280ms returns 0x264
T79BC 001:230.480 JLINK_WriteMem(0x20000400, 0x19C Bytes, ...)
T79BC 001:230.506   Data:  10 8A 80 F3 09 88 BF F3 6F 8F 70 47 00 BF 00 BF ...
T79BC 001:230.551    -- CPU_WriteMem(412 bytes @ 0x20000400)
T79BC 001:237.696 - 7.245ms returns 0x19C
T79BC 001:237.746 JLINK_HasError()
T79BC 001:237.776 JLINK_WriteReg(R0, 0x08000000)
T79BC 001:237.806 - 0.042ms returns 0
T79BC 001:237.833 JLINK_WriteReg(R1, 0x00000400)
T79BC 001:237.858 - 0.038ms returns 0
T79BC 001:237.885 JLINK_WriteReg(R2, 0x2000019C)
T79BC 001:237.910 - 0.038ms returns 0
T79BC 001:237.938 JLINK_WriteReg(R3, 0x00000000)
T79BC 001:237.963 - 0.037ms returns 0
T79BC 001:237.989 JLINK_WriteReg(R4, 0x00000000)
T79BC 001:238.014 - 0.037ms returns 0
T79BC 001:238.041 JLINK_WriteReg(R5, 0x00000000)
T79BC 001:238.066 - 0.037ms returns 0
T79BC 001:238.092 JLINK_WriteReg(R6, 0x00000000)
T79BC 001:238.117 - 0.037ms returns 0
T79BC 001:238.143 JLINK_WriteReg(R7, 0x00000000)
T79BC 001:238.169 - 0.037ms returns 0
T79BC 001:238.195 JLINK_WriteReg(R8, 0x00000000)
T79BC 001:238.220 - 0.037ms returns 0
T79BC 001:238.246 JLINK_WriteReg(R9, 0x20000198)
T79BC 001:238.271 - 0.037ms returns 0
T79BC 001:238.298 JLINK_WriteReg(R10, 0x00000000)
T79BC 001:238.323 - 0.037ms returns 0
T79BC 001:238.349 JLINK_WriteReg(R11, 0x00000000)
T79BC 001:238.374 - 0.037ms returns 0
T79BC 001:238.400 JLINK_WriteReg(R12, 0x00000000)
T79BC 001:238.425 - 0.037ms returns 0
T79BC 001:238.452 JLINK_WriteReg(R13 (SP), 0x20001000)
T79BC 001:238.478 - 0.038ms returns 0
T79BC 001:238.504 JLINK_WriteReg(R14, 0x20000001)
T79BC 001:238.529 - 0.037ms returns 0
T79BC 001:238.556 JLINK_WriteReg(R15 (PC), 0x20000124)
T79BC 001:238.581 - 0.037ms returns 0
T79BC 001:238.607 JLINK_WriteReg(XPSR, 0x01000000)
T79BC 001:238.632 - 0.037ms returns 0
T79BC 001:238.659 JLINK_WriteReg(MSP, 0x20001000)
T79BC 001:238.684 - 0.037ms returns 0
T79BC 001:238.710 JLINK_WriteReg(PSP, 0x20001000)
T79BC 001:238.735 - 0.037ms returns 0
T79BC 001:238.762 JLINK_WriteReg(CFBP, 0x00000000)
T79BC 001:238.787 - 0.037ms returns 0
T79BC 001:238.813 JLINK_SetBPEx(Addr = 0x20000000, Type = 0xFFFFFFF2)
T79BC 001:238.839 - 0.038ms returns 0x00000007
T79BC 001:238.932 JLINK_Go()
T79BC 001:238.970    -- CPU_ReadMem(4 bytes @ 0xE0001000)
T79BC 001:252.694 - 13.793ms
T79BC 001:252.748 JLINK_IsHalted()
T79BC 001:255.443 - 2.721ms returns FALSE
T79BC 001:255.493 JLINK_HasError()
T79BC 001:260.925 JLINK_IsHalted()
T79BC 001:270.456    -- CPU_ReadMem(2 bytes @ 0x20000000)
T79BC 001:272.695 - 11.789ms returns TRUE
T79BC 001:272.737 JLINK_ReadReg(R15 (PC))
T79BC 001:272.772 - 0.049ms returns 0x20000000
T79BC 001:272.805 JLINK_ClrBPEx(BPHandle = 0x00000007)
T79BC 001:272.836 - 0.046ms returns 0x00
T79BC 001:272.868 JLINK_ReadReg(R0)
T79BC 001:272.899 - 0.046ms returns 0x00000000
T79BC 001:273.602 JLINK_WriteMem(0x2000019C, 0x264 Bytes, ...)
T79BC 001:273.636   Data:  B6 F5 80 3F 00 D3 B9 46 14 F8 01 0B 29 46 00 F0 ...
T79BC 001:273.682    -- CPU_WriteMem(612 bytes @ 0x2000019C)
T79BC 001:282.822 - 9.251ms returns 0x264
T79BC 001:282.873 JLINK_WriteMem(0x20000400, 0x19C Bytes, ...)
T79BC 001:282.900   Data:  81 65 08 46 70 47 00 00 40 56 00 08 10 B5 01 46 ...
T79BC 001:282.951    -- CPU_WriteMem(412 bytes @ 0x20000400)
T79BC 001:290.068 - 7.220ms returns 0x19C
T79BC 001:290.118 JLINK_HasError()
T79BC 001:290.155 JLINK_WriteReg(R0, 0x08000400)
T79BC 001:290.190 - 0.050ms returns 0
T79BC 001:290.224 JLINK_WriteReg(R1, 0x00000400)
T79BC 001:290.255 - 0.047ms returns 0
T79BC 001:290.289 JLINK_WriteReg(R2, 0x2000019C)
T79BC 001:290.320 - 0.046ms returns 0
T79BC 001:290.354 JLINK_WriteReg(R3, 0x00000000)
T79BC 001:290.385 - 0.046ms returns 0
T79BC 001:290.418 JLINK_WriteReg(R4, 0x00000000)
T79BC 001:290.449 - 0.046ms returns 0
T79BC 001:290.482 JLINK_WriteReg(R5, 0x00000000)
T79BC 001:290.513 - 0.046ms returns 0
T79BC 001:290.546 JLINK_WriteReg(R6, 0x00000000)
T79BC 001:290.577 - 0.046ms returns 0
T79BC 001:290.610 JLINK_WriteReg(R7, 0x00000000)
T79BC 001:290.641 - 0.045ms returns 0
T79BC 001:290.674 JLINK_WriteReg(R8, 0x00000000)
T79BC 001:290.705 - 0.046ms returns 0
T79BC 001:290.739 JLINK_WriteReg(R9, 0x20000198)
T79BC 001:290.770 - 0.045ms returns 0
T79BC 001:290.803 JLINK_WriteReg(R10, 0x00000000)
T79BC 001:290.834 - 0.046ms returns 0
T79BC 001:290.867 JLINK_WriteReg(R11, 0x00000000)
T79BC 001:290.898 - 0.046ms returns 0
T79BC 001:290.932 JLINK_WriteReg(R12, 0x00000000)
T79BC 001:290.963 - 0.046ms returns 0
T79BC 001:290.997 JLINK_WriteReg(R13 (SP), 0x20001000)
T79BC 001:291.028 - 0.046ms returns 0
T79BC 001:291.061 JLINK_WriteReg(R14, 0x20000001)
T79BC 001:291.092 - 0.046ms returns 0
T79BC 001:291.125 JLINK_WriteReg(R15 (PC), 0x20000124)
T79BC 001:291.156 - 0.046ms returns 0
T79BC 001:291.190 JLINK_WriteReg(XPSR, 0x01000000)
T79BC 001:291.220 - 0.046ms returns 0
T79BC 001:291.254 JLINK_WriteReg(MSP, 0x20001000)
T79BC 001:291.284 - 0.045ms returns 0
T79BC 001:291.314 JLINK_WriteReg(PSP, 0x20001000)
T79BC 001:291.339 - 0.037ms returns 0
T79BC 001:291.366 JLINK_WriteReg(CFBP, 0x00000000)
T79BC 001:291.391 - 0.037ms returns 0
T79BC 001:291.418 JLINK_SetBPEx(Addr = 0x20000000, Type = 0xFFFFFFF2)
T79BC 001:291.444 - 0.038ms returns 0x00000008
T79BC 001:291.472 JLINK_Go()
T79BC 001:291.503    -- CPU_ReadMem(4 bytes @ 0xE0001000)
T79BC 001:305.321 - 13.881ms
T79BC 001:305.378 JLINK_IsHalted()
T79BC 001:308.069 - 2.714ms returns FALSE
T79BC 001:308.116 JLINK_HasError()
T79BC 001:312.937 JLINK_IsHalted()
T79BC 001:322.464    -- CPU_ReadMem(2 bytes @ 0x20000000)
T79BC 001:324.697 - 11.785ms returns TRUE
T79BC 001:324.749 JLINK_ReadReg(R15 (PC))
T79BC 001:324.793 - 0.063ms returns 0x20000000
T79BC 001:324.834 JLINK_ClrBPEx(BPHandle = 0x00000008)
T79BC 001:324.873 - 0.058ms returns 0x00
T79BC 001:324.914 JLINK_ReadReg(R0)
T79BC 001:324.963 - 0.067ms returns 0x00000000
T79BC 001:325.773 JLINK_WriteMem(0x2000019C, 0x264 Bytes, ...)
T79BC 001:325.807   Data:  47 FE 21 68 08 69 49 69 10 F0 03 0F C1 F3 00 11 ...
T79BC 001:325.852    -- CPU_WriteMem(612 bytes @ 0x2000019C)
T79BC 001:334.946 - 9.209ms returns 0x264
T79BC 001:335.005 JLINK_WriteMem(0x20000400, 0x19C Bytes, ...)
T79BC 001:335.038   Data:  04 20 84 F8 38 00 6A E7 E5 63 01 20 84 F8 38 00 ...
T79BC 001:335.104    -- CPU_WriteMem(412 bytes @ 0x20000400)
T79BC 001:342.318 - 7.339ms returns 0x19C
T79BC 001:342.367 JLINK_HasError()
T79BC 001:342.404 JLINK_WriteReg(R0, 0x08000800)
T79BC 001:342.440 - 0.050ms returns 0
T79BC 001:342.472 JLINK_WriteReg(R1, 0x00000400)
T79BC 001:342.501 - 0.043ms returns 0
T79BC 001:342.532 JLINK_WriteReg(R2, 0x2000019C)
T79BC 001:342.561 - 0.042ms returns 0
T79BC 001:342.592 JLINK_WriteReg(R3, 0x00000000)
T79BC 001:342.620 - 0.042ms returns 0
T79BC 001:342.651 JLINK_WriteReg(R4, 0x00000000)
T79BC 001:342.679 - 0.042ms returns 0
T79BC 001:342.710 JLINK_WriteReg(R5, 0x00000000)
T79BC 001:342.738 - 0.042ms returns 0
T79BC 001:342.769 JLINK_WriteReg(R6, 0x00000000)
T79BC 001:342.798 - 0.042ms returns 0
T79BC 001:342.829 JLINK_WriteReg(R7, 0x00000000)
T79BC 001:342.857 - 0.042ms returns 0
T79BC 001:342.888 JLINK_WriteReg(R8, 0x00000000)
T79BC 001:342.916 - 0.042ms returns 0
T79BC 001:342.947 JLINK_WriteReg(R9, 0x20000198)
T79BC 001:342.975 - 0.042ms returns 0
T79BC 001:343.006 JLINK_WriteReg(R10, 0x00000000)
T79BC 001:343.034 - 0.042ms returns 0
T79BC 001:343.065 JLINK_WriteReg(R11, 0x00000000)
T79BC 001:343.094 - 0.042ms returns 0
T79BC 001:343.124 JLINK_WriteReg(R12, 0x00000000)
T79BC 001:343.153 - 0.042ms returns 0
T79BC 001:343.183 JLINK_WriteReg(R13 (SP), 0x20001000)
T79BC 001:343.213 - 0.043ms returns 0
T79BC 001:343.243 JLINK_WriteReg(R14, 0x20000001)
T79BC 001:343.272 - 0.042ms returns 0
T79BC 001:343.303 JLINK_WriteReg(R15 (PC), 0x20000124)
T79BC 001:343.331 - 0.042ms returns 0
T79BC 001:343.362 JLINK_WriteReg(XPSR, 0x01000000)
T79BC 001:343.391 - 0.045ms returns 0
T79BC 001:343.428 JLINK_WriteReg(MSP, 0x20001000)
T79BC 001:343.458 - 0.043ms returns 0
T79BC 001:343.489 JLINK_WriteReg(PSP, 0x20001000)
T79BC 001:343.518 - 0.043ms returns 0
T79BC 001:343.548 JLINK_WriteReg(CFBP, 0x00000000)
T79BC 001:343.577 - 0.042ms returns 0
T79BC 001:343.608 JLINK_SetBPEx(Addr = 0x20000000, Type = 0xFFFFFFF2)
T79BC 001:343.638 - 0.043ms returns 0x00000009
T79BC 001:343.669 JLINK_Go()
T79BC 001:343.705    -- CPU_ReadMem(4 bytes @ 0xE0001000)
T79BC 001:357.444 - 13.811ms
T79BC 001:357.504 JLINK_IsHalted()
T79BC 001:360.196 - 2.718ms returns FALSE
T79BC 001:360.250 JLINK_HasError()
T79BC 001:363.949 JLINK_IsHalted()
T79BC 001:373.456    -- CPU_ReadMem(2 bytes @ 0x20000000)
T79BC 001:375.822 - 11.901ms returns TRUE
T79BC 001:375.877 JLINK_ReadReg(R15 (PC))
T79BC 001:375.920 - 0.062ms returns 0x20000000
T79BC 001:375.966 JLINK_ClrBPEx(BPHandle = 0x00000009)
T79BC 001:376.006 - 0.058ms returns 0x00
T79BC 001:376.047 JLINK_ReadReg(R0)
T79BC 001:376.086 - 0.057ms returns 0x00000000
T79BC 001:376.828 JLINK_WriteMem(0x2000019C, 0x264 Bytes, ...)
T79BC 001:376.867   Data:  12 48 01 70 01 EB 41 00 00 EB C1 01 10 48 00 EB ...
T79BC 001:376.917    -- CPU_WriteMem(612 bytes @ 0x2000019C)
T79BC 001:386.075 - 9.287ms returns 0x264
T79BC 001:386.142 JLINK_WriteMem(0x20000400, 0x19C Bytes, ...)
T79BC 001:386.182   Data:  0A 68 22 F0 04 02 0A 60 94 F8 5C 10 88 40 A8 60 ...
T79BC 001:386.251    -- CPU_WriteMem(412 bytes @ 0x20000400)
T79BC 001:393.446 - 7.337ms returns 0x19C
T79BC 001:393.510 JLINK_HasError()
T79BC 001:393.555 JLINK_WriteReg(R0, 0x08000C00)
T79BC 001:393.599 - 0.062ms returns 0
T79BC 001:393.640 JLINK_WriteReg(R1, 0x00000400)
T79BC 001:393.679 - 0.057ms returns 0
T79BC 001:393.720 JLINK_WriteReg(R2, 0x2000019C)
T79BC 001:393.758 - 0.056ms returns 0
T79BC 001:393.799 JLINK_WriteReg(R3, 0x00000000)
T79BC 001:393.836 - 0.056ms returns 0
T79BC 001:393.878 JLINK_WriteReg(R4, 0x00000000)
T79BC 001:393.915 - 0.058ms returns 0
T79BC 001:393.958 JLINK_WriteReg(R5, 0x00000000)
T79BC 001:393.996 - 0.056ms returns 0
T79BC 001:394.037 JLINK_WriteReg(R6, 0x00000000)
T79BC 001:394.075 - 0.056ms returns 0
T79BC 001:394.116 JLINK_WriteReg(R7, 0x00000000)
T79BC 001:394.153 - 0.056ms returns 0
T79BC 001:394.194 JLINK_WriteReg(R8, 0x00000000)
T79BC 001:394.232 - 0.056ms returns 0
T79BC 001:394.278 JLINK_WriteReg(R9, 0x20000198)
T79BC 001:394.319 - 0.060ms returns 0
T79BC 001:394.360 JLINK_WriteReg(R10, 0x00000000)
T79BC 001:394.398 - 0.056ms returns 0
T79BC 001:394.439 JLINK_WriteReg(R11, 0x00000000)
T79BC 001:394.477 - 0.053ms returns 0
T79BC 001:394.509 JLINK_WriteReg(R12, 0x00000000)
T79BC 001:394.538 - 0.042ms returns 0
T79BC 001:394.568 JLINK_WriteReg(R13 (SP), 0x20001000)
T79BC 001:394.598 - 0.043ms returns 0
T79BC 001:394.628 JLINK_WriteReg(R14, 0x20000001)
T79BC 001:394.657 - 0.042ms returns 0
T79BC 001:394.687 JLINK_WriteReg(R15 (PC), 0x20000124)
T79BC 001:394.715 - 0.042ms returns 0
T79BC 001:394.746 JLINK_WriteReg(XPSR, 0x01000000)
T79BC 001:394.774 - 0.042ms returns 0
T79BC 001:394.805 JLINK_WriteReg(MSP, 0x20001000)
T79BC 001:394.834 - 0.042ms returns 0
T79BC 001:394.864 JLINK_WriteReg(PSP, 0x20001000)
T79BC 001:394.892 - 0.042ms returns 0
T79BC 001:394.923 JLINK_WriteReg(CFBP, 0x00000000)
T79BC 001:394.958 - 0.053ms returns 0
T79BC 001:394.994 JLINK_SetBPEx(Addr = 0x20000000, Type = 0xFFFFFFF2)
T79BC 001:395.024 - 0.044ms returns 0x0000000A
T79BC 001:395.056 JLINK_Go()
T79BC 001:395.092    -- CPU_ReadMem(4 bytes @ 0xE0001000)
T79BC 001:408.822 - 13.810ms
T79BC 001:408.896 JLINK_IsHalted()
T79BC 001:411.570 - 2.707ms returns FALSE
T79BC 001:411.633 JLINK_HasError()
T79BC 001:415.948 JLINK_IsHalted()
T79BC 001:425.457    -- CPU_ReadMem(2 bytes @ 0x20000000)
T79BC 001:427.823 - 11.905ms returns TRUE
T79BC 001:427.881 JLINK_ReadReg(R15 (PC))
T79BC 001:427.925 - 0.064ms returns 0x20000000
T79BC 001:427.968 JLINK_ClrBPEx(BPHandle = 0x0000000A)
T79BC 001:428.007 - 0.058ms returns 0x00
T79BC 001:428.048 JLINK_ReadReg(R0)
T79BC 001:428.087 - 0.057ms returns 0x00000000
T79BC 001:428.853 JLINK_WriteMem(0x2000019C, 0x264 Bytes, ...)
T79BC 001:428.906   Data:  BD E8 F0 81 00 F0 4C F9 80 1B 05 28 05 D9 20 20 ...
T79BC 001:428.958    -- CPU_WriteMem(612 bytes @ 0x2000019C)
T79BC 001:438.072 - 9.259ms returns 0x264
T79BC 001:438.136 JLINK_WriteMem(0x20000400, 0x19C Bytes, ...)
T79BC 001:438.173   Data:  00 00 02 40 00 04 02 40 00 08 02 40 00 0C 02 40 ...
T79BC 001:438.237    -- CPU_WriteMem(412 bytes @ 0x20000400)
T79BC 001:445.447 - 7.336ms returns 0x19C
T79BC 001:445.500 JLINK_HasError()
T79BC 001:445.544 JLINK_WriteReg(R0, 0x08001000)
T79BC 001:445.585 - 0.060ms returns 0
T79BC 001:445.627 JLINK_WriteReg(R1, 0x00000400)
T79BC 001:445.665 - 0.057ms returns 0
T79BC 001:445.706 JLINK_WriteReg(R2, 0x2000019C)
T79BC 001:445.744 - 0.056ms returns 0
T79BC 001:445.786 JLINK_WriteReg(R3, 0x00000000)
T79BC 001:445.824 - 0.057ms returns 0
T79BC 001:445.865 JLINK_WriteReg(R4, 0x00000000)
T79BC 001:445.903 - 0.056ms returns 0
T79BC 001:445.944 JLINK_WriteReg(R5, 0x00000000)
T79BC 001:445.981 - 0.056ms returns 0
T79BC 001:446.022 JLINK_WriteReg(R6, 0x00000000)
T79BC 001:446.060 - 0.056ms returns 0
T79BC 001:446.101 JLINK_WriteReg(R7, 0x00000000)
T79BC 001:446.138 - 0.056ms returns 0
T79BC 001:446.179 JLINK_WriteReg(R8, 0x00000000)
T79BC 001:446.217 - 0.056ms returns 0
T79BC 001:446.258 JLINK_WriteReg(R9, 0x20000198)
T79BC 001:446.295 - 0.056ms returns 0
T79BC 001:446.336 JLINK_WriteReg(R10, 0x00000000)
T79BC 001:446.374 - 0.056ms returns 0
T79BC 001:446.417 JLINK_WriteReg(R11, 0x00000000)
T79BC 001:446.457 - 0.060ms returns 0
T79BC 001:446.499 JLINK_WriteReg(R12, 0x00000000)
T79BC 001:446.538 - 0.057ms returns 0
T79BC 001:446.579 JLINK_WriteReg(R13 (SP), 0x20001000)
T79BC 001:446.612 - 0.047ms returns 0
T79BC 001:446.642 JLINK_WriteReg(R14, 0x20000001)
T79BC 001:446.671 - 0.042ms returns 0
T79BC 001:446.701 JLINK_WriteReg(R15 (PC), 0x20000124)
T79BC 001:446.730 - 0.042ms returns 0
T79BC 001:446.761 JLINK_WriteReg(XPSR, 0x01000000)
T79BC 001:446.789 - 0.042ms returns 0
T79BC 001:446.820 JLINK_WriteReg(MSP, 0x20001000)
T79BC 001:446.848 - 0.042ms returns 0
T79BC 001:446.879 JLINK_WriteReg(PSP, 0x20001000)
T79BC 001:446.907 - 0.042ms returns 0
T79BC 001:446.938 JLINK_WriteReg(CFBP, 0x00000000)
T79BC 001:446.966 - 0.042ms returns 0
T79BC 001:447.001 JLINK_SetBPEx(Addr = 0x20000000, Type = 0xFFFFFFF2)
T79BC 001:447.034 - 0.047ms returns 0x0000000B
T79BC 001:447.065 JLINK_Go()
T79BC 001:447.100    -- CPU_ReadMem(4 bytes @ 0xE0001000)
T79BC 001:460.820 - 13.800ms
T79BC 001:460.895 JLINK_IsHalted()
T79BC 001:463.572 - 2.704ms returns FALSE
T79BC 001:463.621 JLINK_HasError()
T79BC 001:472.535 JLINK_IsHalted()
T79BC 001:482.091    -- CPU_ReadMem(2 bytes @ 0x20000000)
T79BC 001:484.447 - 11.942ms returns TRUE
T79BC 001:484.499 JLINK_ReadReg(R15 (PC))
T79BC 001:484.534 - 0.049ms returns 0x20000000
T79BC 001:484.565 JLINK_ClrBPEx(BPHandle = 0x0000000B)
T79BC 001:484.597 - 0.050ms returns 0x00
T79BC 001:484.634 JLINK_ReadReg(R0)
T79BC 001:484.670 - 0.052ms returns 0x00000000
T79BC 001:485.494 JLINK_WriteMem(0x2000019C, 0x264 Bytes, ...)
T79BC 001:485.540   Data:  99 40 9E 40 76 1E 16 40 31 43 F0 BC 01 F0 F2 BD ...
T79BC 001:485.602    -- CPU_WriteMem(612 bytes @ 0x2000019C)
T79BC 001:494.818 - 9.349ms returns 0x264
T79BC 001:494.865 JLINK_WriteMem(0x20000400, 0x19C Bytes, ...)
T79BC 001:494.895   Data:  03 EA D2 02 02 61 04 48 00 68 00 F0 0F 00 08 60 ...
T79BC 001:494.943    -- CPU_WriteMem(412 bytes @ 0x20000400)
T79BC 001:502.071 - 7.242ms returns 0x19C
T79BC 001:502.135 JLINK_HasError()
T79BC 001:502.178 JLINK_WriteReg(R0, 0x08001400)
T79BC 001:502.218 - 0.058ms returns 0
T79BC 001:502.257 JLINK_WriteReg(R1, 0x00000400)
T79BC 001:502.292 - 0.053ms returns 0
T79BC 001:502.331 JLINK_WriteReg(R2, 0x2000019C)
T79BC 001:502.366 - 0.052ms returns 0
T79BC 001:502.403 JLINK_WriteReg(R3, 0x00000000)
T79BC 001:502.438 - 0.052ms returns 0
T79BC 001:502.476 JLINK_WriteReg(R4, 0x00000000)
T79BC 001:502.511 - 0.052ms returns 0
T79BC 001:502.551 JLINK_WriteReg(R5, 0x00000000)
T79BC 001:502.585 - 0.052ms returns 0
T79BC 001:502.623 JLINK_WriteReg(R6, 0x00000000)
T79BC 001:502.654 - 0.044ms returns 0
